# GHZ S MA R 10.00000
30.00000000000000 0.9997914497594 -10.33350987832 0.0046345535538 80.109339847782 0.0046345535538 80.109339847769 0.9998086274008 -9.088400430917
31.00000000000000 0.9997798818481 -10.75743514583 0.0049317724503 79.707572407902 0.0049317724503 79.707572407890 0.9997978374981 -9.463344096696
32.00000000000000 0.9997676582451 -11.19075659110 0.0052489473583 79.296712654397 0.0052489473583 79.296712654397 0.9997864166971 -9.846835251486
33.00000000000000 0.9997547111429 -11.63408330310 0.0055879872085 78.876169662409 0.0055879872085 78.876169662383 0.9997742980827 -10.23943521618
34.00000000000000 0.9997409634215 -12.08806845213 0.0059510270631 78.445309557677 0.0059510270631 78.445309557706 0.9997614065613 -10.64174643409
35.00000000000000 0.9997263274673 -12.55341253739 0.0063404366169 78.003452565458 0.0063404366169 78.003452565445 0.9997476561930 -11.05441604261
36.00000000000000 0.9997107037701 -13.03086847887 0.0067588598106 77.549866293734 0.0067588598106 77.549866293756 0.9997329491971 -11.47814071831
37.00000000000000 0.9996939779844 -13.52124756275 0.0072092599154 77.083761238840 0.0072092599154 77.083761238827 0.9997171731152 -11.91367219921
38.00000000000000 0.9996760186353 -14.02542542400 0.0076949569571 76.604284489020 0.0076949569571 76.604284489021 0.9997001985280 -12.36182329202
39.00000000000000 0.9996566743699 -14.54434964403 0.0082196899617 76.110512994298 0.0082196899617 76.110512994277 0.9996818762844 -12.82347483385
40.00000000000000 0.9996357693166 -15.07904674606 0.0087876637979 75.601444728281 0.0087876637979 75.601444728285 0.9996620325306 -13.29958308961
41.00000000000000 0.9996130988230 -15.63063232430 0.0094036335736 75.075990361432 0.0094036335736 75.075990361445 0.9996404649853 -13.79118904467
42.00000000000000 0.9995884230134 -16.20032158473 0.0100729906031 74.532962085474 0.0100729906031 74.532962085456 0.9996169362905 -14.29942867110
43.00000000000000 0.9995614596589 -16.78944113049 0.0108018610852 73.971061905889 0.0108018610852 73.971061905901 0.9995911664017 -14.82554461529
44.00000000000000 0.9995318754125 -17.39944108110 0.0115972066726 73.388869060409 0.0115972066726 73.388869060399 0.9995628247470 -15.37089881930
45.00000000000000 0.9994992729123 -18.03191628738 0.0124670272400 72.784819511809 0.0124670272399 72.784819511820 0.9995315163730 -15.93699086458
46.00000000000000 0.9994631779007 -18.68861764530 0.0134204463748 72.157194366103 0.0134204463748 72.157194366120 0.9994967697184 -16.52547251489
47.00000000000000 0.9994230195081 -19.37147980603 0.0144679960805 71.504091496787 0.0144679960805 71.504091496804 0.9994580158482 -17.13817234464
48.00000000000000 0.9993781065492 -20.08264321641 0.0156218163094 70.823404292457 0.0156218163095 70.823404292442 0.9994145660741 -17.77711889590
49.00000000000000 0.9993275966128 -20.82448579065 0.0168959918054 70.112788948219 0.0168959918054 70.112788948233 0.9993655800957 -18.44457153665
50.00000000000000 0.9992704575412 -21.59965635177 0.0183068885489 69.369631282099 0.0183068885488 69.369631282092 0.9993100264426 -19.14305445800
51.00000000000000 0.9992054133746 -22.41111749349 0.0198736289252 68.591003061572 0.0198736289252 68.591003061572 0.9992466311670 -19.87539875036
52.00000000000000 0.9991308770818 -23.26219656320 0.0216186506350 67.773609669706 0.0216186506350 67.773609669724 0.9991738058231 -20.64479403939
53.00000000000000 0.9990448560077 -24.15664428400 0.0235683898207 66.913725232500 0.0235683898208 66.913725232503 0.9990895592104 -21.45484765819
54.00000000000000 0.9989448405719 -25.09870856469 0.0257541440101 66.007152400104 0.0257541440101 66.007152400099 0.9989913711497 -22.30965876297
55.00000000000000 0.9988276165460 -26.09322395885 0.0282131761392 65.049058015655 0.0282131761392 65.049058015654 0.9988760279581 -23.21390947303
56.00000000000000 0.9986890583817 -27.14571969578 0.0309900533927 64.033936912386 0.0309900533927 64.033936912386 0.9987393919324 -24.17297505197
57.00000000000000 0.9985238056018 -28.26255657645 0.0341384282189 62.955436010616 0.0341384282189 62.955436010589 0.9985760879229 -25.19306377795
58.00000000000001 0.9983248224757 -29.45109721158 0.0377232798732 61.806185385586 0.0377232798732 61.806185385607 0.9983790601324 -26.28139106570
59.00000000000001 0.9980827874214 -30.71992023165 0.0418238511603 60.577578858898 0.0418238511603 60.577578858904 0.9981389463552 -27.44640059566
60.00000000000001 0.9977851829235 -32.07908731308 0.0465373518879 59.259499874076 0.0465373518880 59.259499874067 0.9978431918151 -28.69804300787
61.00000000000001 0.9974150221799 -33.54050251792 0.0519840798800 57.839947188116 0.0519840798800 57.839947188123 0.9974747418367 -30.04814572241
62.00000000000001 0.9969489390219 -35.11836598652 0.0583140471813 56.304574001157 0.0583140471813 56.304574001158 0.9970101354198 -31.51088880949
63.00000000000001 0.9963543360901 -36.82977785939 0.0657159355826 54.636053297977 0.0657159355827 54.636053297969 0.9964166439540 -33.10343784593
64.00000000000000 0.9955850633338 -38.69554188364 0.0744292231472 52.813249883217 0.0744292231474 52.813249883234 0.9956479265847 -34.84679145217
65.00000000000000 0.9945747055422 -40.74126156989 0.0847609195646 50.810073342764 0.0847609195647 50.810073342741 0.9946372953409 -36.76693942248
66.00000000000000 0.9932260085320 -42.99883602657 0.0971086240153 48.593921072686 0.0971086240151 48.593921072682 0.9932870992513 -38.89645629793
67.00000000000000 0.9913938613113 -45.50854691079 0.1119927198408 46.123487640255 0.1119927198407 46.123487640259 0.9914516436129 -41.27673258588
68.00000000000000 0.9888572999203 -48.32200971687 0.1301017317609 43.345661462512 0.1301017317608 43.345661462516 0.9889090960895 -43.96114973117
69.00000000000000 0.9852726064024 -51.50635312272 0.1523553849001 40.191116051367 0.1523553849002 40.191116051393 0.9853144246004 -47.01962468156
70.00000000000000 0.9800927076056 -55.15030007444 0.1799932048208 36.567839830767 0.1799932048204 36.567839830755 0.9801185295147 -50.54525823554
71.00000000000000 0.9724267899038 -59.37277766863 0.2146913259584 32.351889736980 0.2146913259584 32.351889736975 0.9724274122130 -54.66393354579
72.00000000000000 0.9607926800116 -64.33500900613 0.2587037748698 27.374209187817 0.2587037748699 27.374209187828 0.9607538021843 -59.54810939470
73.00000000000000 0.9426803762140 -70.25632848523 0.3149920493360 21.402814759947 0.3149920493367 21.402814759964 0.9425793163547 -65.43573593386
74.00000000000000 0.9138212630321 -77.43003501281 0.3871702859069 14.123053942347 0.3871702859060 14.123053942331 0.9136214646655 -72.65216610378
75.00000000000000 0.8671205349043 -86.22470313390 0.4788384600959 5.1285226032723 0.4788384600967 5.1285226032557 0.8667621772241 -81.62412445785
76.00000000000000 0.7917569943659 -97.02290747465 0.5912879490205 -6.037083906986 0.5912879490214 -6.037083906996 0.7911418299637 -92.84772893466
77.00000000000000 0.6747905160146 -109.9881818160 0.7184264484121 -19.69444926693 0.7184264484122 -19.69444926695 0.6737566275878 -106.7333110663
78.00000000000000 0.5099630148634 -124.5073854322 0.8411550944890 -35.63152239760 0.8411550944880 -35.63152239759 0.5082296282737 -123.3015997120
79.00000000000000 0.3124956252452 -138.1164101811 0.9321815368659 -52.75026414749 0.9321815368649 -52.75026414749 0.3094262644070 -142.2681166873
80.00000000000000 0.1218000613205 -140.3545479342 0.9766624972515 -69.42390568232 0.9766624972494 -69.42390568233 0.1143797976999 -167.7037495746
81.00000000000000 0.0701981396353 -42.27991490961 0.9835451735475 -84.47139568290 0.9835451735474 -84.47139568289 0.0594380822416 40.242086447564
82.00000000000000 0.1750400730804 -28.26112614691 0.9721723746502 -97.61328326495 0.9721723746495 -97.61328326497 0.1722276866175 8.7347888113791
83.00000000000000 0.2482755507286 -35.41587819489 0.9574710635902 -109.1616745932 0.9574710635904 -109.1616745932 0.2471074744467 -4.980764518368
84.00000000000000 0.2889018910505 -44.83259976636 0.9469082423279 -119.6015138810 0.9469082423272 -119.6015138810 0.2885112678418 -15.44548829414
85.00000000000000 0.3032508958913 -54.93101450080 0.9429064754526 -129.3791763459 0.9429064754533 -129.3791763460 0.3033845522610 -24.29223708936
86.00000000000000 0.2965078416966 -65.67060510489 0.9452359057602 -138.8423608064 0.9452359057595 -138.8423608064 0.2970900252335 -32.02275997055
87.00000000000000 0.2727083587551 -77.38573548921 0.9523573876808 -148.2365644290 0.9523573876804 -148.2365644290 0.2737470257861 -38.69782898805
88.00000000000000 0.2355527737634 -90.69694494098 0.9620879730370 -157.7138107873 0.9620879730376 -157.7138107873 0.2371275350816 -43.94507316259
89.00000000000000 0.1894125865910 -106.8042583125 0.9720592070897 -167.3422161526 0.9720592070893 -167.3422161526 0.1916884928814 -46.67042322673
90.00000000000000 0.1407233233335 -128.3791570323 0.9801584705404 -177.1185751328 0.9801584705405 -177.1185751327 0.1439833209833 -44.25275737102
91.00000000000000 0.1009146301707 -161.0837604419 0.9849869545277 173.01094275365 0.9849869545267 173.01094275366 0.1053855556497 -31.44720808698
92.00000000000000 0.0883854649730 153.24942469490 0.9861952108027 163.12084983345 0.9861952108039 163.12084983346 0.0930789478164 -7.101691054872
93.00000000000000 0.1057817173330 113.96091023323 0.9845277156350 153.27094117494 0.9845277156364 153.27094117495 0.1091514224793 11.712035812798
94.00000000000000 0.1308725303556 88.594858822566 0.9815371228148 143.47480294930 0.9815371228139 143.47480294933 0.1329676971994 17.846455736546
95.00000000000000 0.1477276726963 70.916122530059 0.9790811108843 133.67819365845 0.9790811108855 133.67819365845 0.1489096698228 16.574242242315
96.00000000000000 0.1484952181071 57.138429078816 0.9787331357994 123.74898165996 0.9787331357976 123.74898165996 0.1489326428797 11.332068707282
97.00000000000000 0.1279946311085 46.142333894090 0.9811477065112 113.47683568133 0.9811477065113 113.47683568134 0.1276129230397 3.1533216480559
98.00000000000000 0.0822134923874 40.625382510114 0.9852659327810 102.58489574651 0.9852659327796 102.58489574651 0.0802478013815 -9.626793112422
99.00000000000000 0.0272031272655 100.60261656337 0.9872498356629 90.767061712361 0.9872498356619 90.767061712357 0.0149999772659 -99.81771637472
100.0000000000000 0.1167292035795 160.99021859447 0.9794690732370 77.780936079822 0.9794690732365 77.780936079820 0.1139062684336 166.63614251573
101.0000000000000 0.2575483703862 153.59871260573 0.9511067045213 63.622022610973 0.9511067045231 63.622022610950 0.2562156353788 149.16781800059
102.0000000000000 0.4158310643175 140.53263002082 0.8929152028368 48.719034934522 0.8929152028373 48.719034934528 0.4151225747240 133.68577388520
103.0000000000000 0.5686244687250 126.40115738609 0.8050473054699 33.934749372405 0.8050473054703 33.934749372404 0.5682847322933 118.90802237464
104.0000000000000 0.6964452335086 112.91531995649 0.6994775630942 20.221308360500 0.6994775630922 20.221308360499 0.6963394362798 105.37875200551
105.0000000000000 0.7918349738709 100.93363282387 0.5923748796149 8.1944875847521 0.5923748796153 8.1944875847522 0.7918749254922 93.591492425729
106.0000000000000 0.8579937416009 90.707281065842 0.4952741898880 -1.992091557801 0.4952741898884 -1.992091557773 0.8581187754322 83.655850338675
107.0000000000000 0.9022538054545 82.125503099011 0.4128598399676 -10.49287829207 0.4128598399672 -10.49287829210 0.9024262731384 75.399277012043
108.0000000000000 0.9315760289432 74.938694859138 0.3452344763288 -17.57965269599 0.3452344763285 -17.57965269598 0.9317721794852 68.543456956135
109.0000000000000 0.9511165068583 68.883894009250 0.2905158584545 -23.52714236726 0.2905158584546 -23.52714236726 0.9513222450967 62.811809636634
110.0000000000000 0.9643211029271 63.733356310026 0.2463625345753 -28.56844757118 0.2463625345758 -28.56844757119 0.9645281587822 57.970316339975
111.0000000000000 0.9734040714649 59.304603608254 0.2106191128321 -32.88981589299 0.2106191128326 -32.88981589297 0.9736079162561 53.833937886809
112.0000000000000 0.9797713611232 55.455635530589 0.1815018632845 -36.63494147705 0.1815018632850 -36.63494147710 0.9799694091960 50.260026980483
113.0000000000000 0.9843200618824 52.076926657884 0.1576006783215 -39.91415911920 0.1576006783220 -39.91415911918 0.9845109431239 47.139404617276
114.0000000000000 0.9876290286457 49.083843150216 0.1378222352255 -42.81245277619 0.1378222352254 -42.81245277620 0.9878122258232 44.388262153554
115.0000000000000 0.9900778546944 46.410488045435 0.1213232305155 -45.39571442937 0.1213232305156 -45.39571442939 0.9902531970579 41.941749757543
116.0000000000000 0.9919195957540 44.005057324776 0.1074528988183 -47.71575814227 0.1074528988183 -47.71575814227 0.9920873146829 39.749181838080
117.0000000000000 0.9933255566697 41.826377447275 0.0957062876898 -49.81331368434 0.0957062876898 -49.81331368433 0.9934859432475 37.770491607671
118.0000000000000 0.9944141868951 39.841376561807 0.0856893469448 -51.72163739231 0.0856893469450 -51.72163739232 0.9945676847287 35.973667771777
119.0000000000000 0.9952680960068 38.023194580324 0.0770918725387 -53.46716742820 0.0770918725387 -53.46716742820 0.9954150951422 34.332836759409
120.0000000000000 0.9959460104946 36.349806480770 0.0696683231616 -55.07137584495 0.0696683231616 -55.07137584495 0.9960869653070 32.826886158443
121.0000000000000 0.9964904044758 34.802974306803 0.0632221123185 -56.55251823520 0.0632221123185 -56.55251823519 0.9966257373527 31.438409954894
122.0000000000000 0.9969322111273 33.367466645640 0.0575953096341 -57.92552425864 0.0575953096340 -57.92552425862 0.9970623240545 30.152935207943
123.0000000000000 0.9972943665706 32.030456423141 0.0526597944461 -59.20312709622 0.0526597944461 -59.20312709620 0.9974196453748 28.958322164108
124.0000000000000 0.9975939090284 30.781055390483 0.0483107376084 -60.39559157522 0.0483107376084 -60.39559157522 0.9977147174767 27.844305872574
125.0000000000000 0.9978438828146 29.609963924314 0.0444621595437 -61.51241164258 0.0444621595437 -61.51241164260 0.9979605733527 26.802150214012
126.0000000000000 0.9980541922298 28.509180943629 0.0410427588769 -62.56132240267 0.0410427588769 -62.56132240267 0.9981670608992 25.824365380782
127.0000000000000 0.9982324596106 27.471785353476 0.0379934026576 -63.54900196355 0.0379934026575 -63.54900196354 0.9983418049293 24.904493082880
128.0000000000000 0.9983846633862 26.491751997737 0.0352643542560 -64.48115662282 0.0352643542561 -64.48115662280 0.9984907356379 24.036928043786
129.0000000000000 0.9985154947201 25.563813723182 0.0328138984813 -65.36338322790 0.0328138984813 -65.36338322792 0.9986185527114 23.216785642412
130.0000000000000 0.9986286522153 24.683341320625 0.0306067849599 -66.19979290679 0.0306067849599 -66.19979290678 0.9987289305210 22.439782131104
131.0000000000000 0.9987270915977 23.846246111789 0.0286129097916 -66.99422493232 0.0286129097916 -66.99422493233 0.9988247874159 21.702145764445
132.0000000000000 0.9988132352370 23.048905412121 0.0268067251848 -67.75075834583 0.0268067251848 -67.75075834585 0.9989085474134 21.000542530119
133.0000000000000 0.9988889698076 22.288093894726 0.0251662373331 -68.47184125183 0.0251662373331 -68.47184125182 0.9989820854314 20.332009967606
134.0000000000000 0.9989559202903 21.560929278132 0.0236723835604 -69.16080065232 0.0236723835604 -69.16080065232 0.9990469969571 19.693907752669
135.0000000000000 0.9990153460479 20.864831664454 0.0223091154339 -69.81995618653 0.0223091154339 -69.81995618651 0.9991045423256 19.083876188521
136.0000000000000 0.9990683243769 20.197476698549 0.0210620489502 -70.45140376391 0.0210620489502 -70.45140376394 0.9991557789414 18.499794936323
137.0000000000000 0.9991157465107 19.556769795507 0.0199188908775 -71.05725583352 0.0199188908775 -71.05725583352 0.9992015925406 17.939755493687
138.0000000000000 0.9991583557933 18.940815197682 0.0188688265467 -71.63940936107 0.0188688265466 -71.63940936106 0.9992427143492 17.402034431519
139.0000000000000 0.9991967743989 18.347893720748 0.0179024745372 -72.19961470507 0.0179024745372 -72.19961470506 0.9992797651337 16.885071646338
140.0000000000000 0.9992315154142 17.776440951258 0.0170114696866 -72.73884443887 0.0170114696866 -72.73884443884 0.9993132461127 16.387449049686
141.0000000000000 0.9992630442279 17.225031233851 0.0161885237163 -73.25924833342 0.0161885237163 -73.25924833341 0.9993436130733 15.907877357147
142.0000000000000 0.9992917330106 16.692360802223 0.0154271519503 -73.76145438137 0.0154271519502 -73.76145438137 0.9993712312787 15.445178491793
143.0000000000000 0.9993179000740 16.177236113562 0.0147217066320 -74.24687826914 0.0147217066320 -74.24687826915 0.9993964222585 14.998276288161
144.0000000000000 0.9993418318441 15.678561047560 0.0140670061753 -74.71652743858 0.0140670061753 -74.71652743855 0.9994194535507 14.566183111333
145.0000000000000 0.9993637729508 15.195327453500 0.0134585036099 -75.17153843147 0.0134585036099 -75.17153843147 0.9994405795953 14.147992482510
146.0000000000000 0.9993839220636 14.726606495869 0.0128922233296 -75.61243971555 0.0128922233296 -75.61243971554 0.9994599825348 13.742869982747
147.0000000000000 0.9994024660684 14.271540246791 0.0123645098764 -76.04027692319 0.0123645098764 -76.04027692320 0.9994778513487 13.350046373009
148.0000000000000 0.9994195618257 13.829334985192 0.0118721118081 -76.45586290214 0.0118721118082 -76.45586290213 0.9994943400751 12.968810456087
149.0000000000000 0.9994353568912 13.399255652643 0.0114121179035 -76.85971968890 0.0114121179035 -76.85971968892 0.9995095824416 12.598504673182
150.0000000000000 0.9994499610024 12.980619592577 0.0109819281512 -77.25262254674 0.0109819281512 -77.25262254674 0.9995237021625 12.238519328372
