# GHZ S MA R 10.00000
100.0000000000000 0.9995337807247 -17.59605735075 0.0083455252841 72.945595466681 0.0083455252841 72.945595466701 0.9995533634996 -16.08015280822
101.0000000000000 0.9995227300311 -17.85680323895 0.0085868322717 72.692819299668 0.0085868322717 72.692819299671 0.9995425759220 -16.32144527216
102.0000000000000 0.9995113174462 -18.12108507527 0.0088367466284 72.436542257575 0.0088367466284 72.436542257581 0.9995314270352 -16.56612831029
103.0000000000000 0.9994995240044 -18.38900652174 0.0090956669998 72.176660565366 0.0090956669998 72.176660565363 0.9995198976790 -16.81430362215
104.0000000000000 0.9994873294156 -18.66067507236 0.0093640141076 71.913066949065 0.0093640141076 71.913066949070 0.9995079674487 -17.06607677263
105.0000000000000 0.9994747121089 -18.93620224449 0.0096422323120 71.645649593089 0.0096422323120 71.645649593087 0.9994956144579 -17.32155738514
106.0000000000000 0.9994616489034 -19.21570377136 0.0099307910266 71.374292628009 0.0099307910266 71.374292628021 0.9994828153406 -17.58085934862
107.0000000000000 0.9994481150094 -19.49929982103 0.0102301866036 71.098875616644 0.0102301866036 71.098875616639 0.9994695450441 -17.84410103641
108.0000000000000 0.9994340838208 -19.78711520248 0.0105409437328 70.819273441363 0.0105409437328 70.819273441368 0.9994557766727 -18.11140552847
109.0000000000000 0.9994195268032 -20.07927963507 0.0108636180428 70.535356085660 0.0108636180428 70.535356085650 0.9994414814041 -18.38290088065
110.0000000000000 0.9994044133087 -20.37592796618 0.0111987975441 70.246988111185 0.0111987975441 70.246988111185 0.9994266282492 -18.65872036400
111.0000000000000 0.9993887104222 -20.67720045711 0.0115471051900 69.954028646405 0.0115471051900 69.954028646410 0.9994111838621 -18.93900275201
112.0000000000000 0.9993723825958 -20.98324307291 0.0119092014651 69.656331096023 0.0119092014651 69.656331096022 0.9993951123218 -19.22389262922
113.0000000000000 0.9993553916584 -21.29420779739 0.0122857871384 69.353742527337 0.0122857871384 69.353742527333 0.9993783749802 -19.51354071269
114.0000000000000 0.9993376963244 -21.61025290563 0.0126776053078 69.046103843451 0.0126776053078 69.046103843444 0.9993609300803 -19.80810415152
115.0000000000000 0.9993192520488 -21.93154336537 0.0130854453629 68.733248861220 0.0130854453629 68.733248861221 0.9993427324891 -20.10774693546
116.0000000000000 0.9993000106824 -22.25825120133 0.0135101463633 68.415004268858 0.0135101463633 68.415004268851 0.9993237334586 -20.41264027526
117.0000000000000 0.9992799200772 -22.59055584153 0.0139525998491 68.091189491380 0.0139525998491 68.091189491378 0.9993038801837 -20.72296298330
118.0000000000000 0.9992589237404 -22.92864460841 0.0144137548442 67.761615335400 0.0144137548442 67.761615335403 0.9992831154260 -21.03890196937
119.0000000000000 0.9992369603690 -23.27271311386 0.0148946214137 67.426084514760 0.0148946214137 67.426084514756 0.9992613770997 -21.36065267428
120.0000000000000 0.9992139632965 -23.62296577809 0.0153962756847 67.084390523946 0.0153962756847 67.084390523943 0.9992385976807 -21.68841960615
121.0000000000000 0.9991898601274 -23.97961632582 0.0159198648163 66.736317467445 0.0159198648163 66.736317467448 0.9992147037430 -22.02241687598
122.0000000000000 0.9991645719286 -24.34288835640 0.0164666125763 66.381639084094 0.0164666125763 66.381639084093 0.9991896153367 -22.36286879418
123.0000000000000 0.9991380126256 -24.71301592719 0.0170378252701 66.020118626291 0.0170378252701 66.020118626293 0.9991632452084 -22.71001049391
124.0000000000000 0.9991100882505 -25.09024423747 0.0176348989185 65.651507701665 0.0176348989185 65.651507701673 0.9991354981263 -23.06408864924
125.0000000000000 0.9990806960476 -25.47483026850 0.0182593256276 65.275545908043 0.0182593256276 65.275545908042 0.9991062699397 -23.42536217122
126.0000000000000 0.9990497235285 -25.86704353819 0.0189127016973 64.891959871339 0.0189127016973 64.891959871338 0.9990754465607 -23.79410300442
127.0000000000000 0.9990170472539 -26.26716695271 0.0195967369891 64.500462373524 0.0195967369891 64.500462373525 0.9990429029321 -24.17059703603
128.0000000000000 0.9989825318249 -26.67549760337 0.0203132631923 64.100751748575 0.0203132631923 64.100751748574 0.9990085017256 -24.55514495303
129.0000000000000 0.9989460282700 -27.09234776699 0.0210642452281 63.692510410334 0.0210642452281 63.692510410333 0.9989720919313 -24.94806331124
130.0000000000000 0.9989073725299 -27.51804588826 0.0218517919699 63.275404303067 0.0218517919699 63.275404303069 0.9989335072411 -25.34968559138
131.0000000000000 0.9988663836594 -27.95293769148 0.0226781692785 62.849081272339 0.0226781692785 62.849081272338 0.9988925641977 -25.76036339595
132.0000000000000 0.9988228617980 -28.39738736452 0.0235458133169 62.413170185243 0.0235458133169 62.413170185247 0.9988490601916 -26.18046772654
133.0000000000000 0.9987765858225 -28.85177886575 0.0244573458571 61.967279461028 0.0244573458571 61.967279461027 0.9988027710922 -26.61039039170
134.0000000000000 0.9987273106491 -29.31651731222 0.0254155911286 61.510995326881 0.0254155911286 61.510995326877 0.9987534484678 -27.05054551937
135.0000000000000 0.9986747643370 -29.79203055442 0.0264235943233 61.043880842732 0.0264235943233 61.043880842729 0.9987008166230 -27.50137123962
136.0000000000000 0.9986186443812 -30.27877082270 0.0274846421207 60.565473249924 0.0274846421207 60.565473249926 0.9986445690592 -27.96333149867
137.0000000000000 0.9985586140031 -30.77721651530 0.0286022843620 60.075282914264 0.0286022843620 60.075282914267 0.9985843643962 -28.43691799720
138.0000000000000 0.9984942973673 -31.28787431421 0.0297803613074 59.572790622850 0.0297803613074 59.572790622851 0.9985198218350 -28.92265247416
139.0000000000000 0.9984252743910 -31.81128122834 0.0310230288963 59.057445515391 0.0310230288963 59.057445515392 0.9984505157262 -29.42108897700
140.0000000000000 0.9983510747483 -32.34800711883 0.0323347918160 58.528662463758 0.0323347918160 58.528662463755 0.9983759696163 -29.93281658149
141.0000000000000 0.9982711707795 -32.89865723396 0.0337205363639 57.985819517877 0.0337205363639 57.985819517879 0.9982956489546 -30.45846220509
142.0000000000000 0.9981849693099 -33.46387517325 0.0351855699095 57.428254437108 0.0351855699095 57.428254437111 0.9982089530163 -30.99869384740
143.0000000000000 0.9980918024097 -34.04434607723 0.0367356634657 56.855261689420 0.0367356634657 56.855261689418 0.9981152053894 -31.55422408621
144.0000000000000 0.9979909161873 -34.64080012092 0.0383770991981 56.266088303299 0.0383770991981 56.266088303301 0.9980136427825 -32.12581395674
145.0000000000000 0.9978814583537 -35.25401646112 0.0401167247553 55.659930285280 0.0401167247553 55.659930285280 0.9979034023212 -32.71427729125
146.0000000000000 0.9977624628064 -35.88482753538 0.0419620129611 55.035927391854 0.0419620129611 55.035927391855 0.9977835062116 -33.32048547547
147.0000000000000 0.9976328324995 -36.53412386885 0.0439211293333 54.393158316827 0.0439211293333 54.393158316826 0.9976528442771 -33.94537278754
148.0000000000000 0.9974913189820 -37.20285934785 0.0460030072703 53.730635229436 0.0460030072703 53.730635229438 0.9975101533050 -34.58994227306
149.0000000000000 0.9973364977532 -37.89205728643 0.0482174351974 53.047296996538 0.0482174351974 53.047296996542 0.9973539922936 -35.25527245798
150.0000000000000 0.9971667401935 -38.60281698097 0.0505751519595 52.342002588343 0.0505751519595 52.342002588348 0.9971827140782 -35.94252469225
151.0000000000000 0.9969801796569 -39.33632105522 0.0530879541639 51.613522603185 0.0530879541639 51.613522603185 0.9969944311536 -36.65295137933
152.0000000000000 0.9967746711602 -40.09384397676 0.0557688231186 50.860530734970 0.0557688231186 50.860530734969 0.9967869750238 -37.38790546613
153.0000000000000 0.9965477441415 -40.87676122874 0.0586320611742 50.081593554040 0.0586320611742 50.081593554041 0.9965578485411 -38.14885078482
154.0000000000000 0.9962965453338 -41.68655982061 0.0616934505186 49.275159629691 0.0616934505186 49.275159629689 0.9963041683872 -38.93737388604
155.0000000000000 0.9960177707071 -42.52485025504 0.0649704351246 48.439546366693 0.0649704351246 48.439546366696 0.9960225964924 -39.75519752029
156.0000000000000 0.9957075838205 -43.39337986312 0.0684823240094 47.572925582679 0.0684823240095 47.572925582678 0.9957092578988 -40.60419570058
157.0000000000000 0.9953615176528 -44.29404790057 0.0722505247726 46.673307675397 0.0722505247726 46.673307675402 0.9953596415189 -41.48641089461
158.0000000000000 0.9949743555104 -45.22892294441 0.0762988116727 45.738522176385 0.0762988116727 45.738522176384 0.9949684805197 -42.40407369897
159.0000000000000 0.9945399877369 -46.20026224499 0.0806536269869 44.766197727100 0.0806536269869 44.766197727102 0.9945296081066 -43.35962501272
160.0000000000000 0.9940512364389 -47.21053436602 0.0853444341976 43.753736865456 0.0853444341976 43.753736865458 0.9940357808237 -44.35574179231
161.0000000000000 0.9934996428978 -48.26244433550 0.0904041107081 42.698288981779 0.0904041107081 42.698288981777 0.9934784646983 -45.39536603875
162.0000000000000 0.9928752066991 -49.35896301744 0.0958694073875 41.596718415603 0.0958694073875 41.596718415605 0.9928475728035 -46.48173851934
163.0000000000000 0.9921660660546 -50.50336044863 0.1017814690576 40.445568380689 0.1017814690576 40.445568380691 0.9921311436068 -47.61843731868
164.0000000000000 0.9913581041834 -51.69924429743 0.1081864342633 39.241018364060 0.1081864342633 39.241018364057 0.9913149448353 -48.80942243090
165.0000000000000 0.9904344638399 -52.95060358377 0.1151361116948 37.978837213005 0.1151361116948 37.978837213005 0.9903819855172 -50.05908683785
166.0000000000000 0.9893749442159 -54.26185966155 0.1226887645782 36.654326571630 0.1226887645782 36.654326571629 0.9893119092573 -51.37231613718
167.0000000000000 0.9881552535046 -55.63792421986 0.1309099922016 35.262256949357 0.1309099922016 35.262256949357 0.9880802429585 -52.75455705735
168.0000000000000 0.9867460769026 -57.08426590161 0.1398737250181 33.796794010195 0.1398737250181 33.796794010195 0.9866574599453 -54.21189664831
169.0000000000000 0.9851119120822 -58.60698726802 0.1496633523792 32.251413296070 0.1496633523792 32.251413296071 0.9850078091273 -55.75115449334
170.0000000000000 0.9832096126601 -60.21291214944 0.1603729631499 30.618802372186 0.1603729631499 30.618802372185 0.9830878521303 -57.37998856281
171.0000000000000 0.9809865620917 -61.90968507633 0.1721087034172 28.890748261234 0.1721087034172 28.890748261233 0.9808446279433 -59.10701740754
172.0000000000000 0.9783783836556 -63.70588362637 0.1849902271730 27.058009668169 0.1849902271730 27.058009668169 0.9782133523022 -60.94196045386
173.0000000000000 0.9753060679928 -65.61114371839 0.1991521884646 25.110172198769 0.1991521884646 25.110172198769 0.9751145330866 -62.89579790482
174.0000000000000 0.9716723813403 -67.63629601883 0.2147456702374 23.035487592083 0.2147456702374 23.035487592083 0.9714503629518 -64.98095045431
175.0000000000000 0.9673573859505 -69.79351167524 0.2319394161142 20.820697585478 0.2319394161142 20.820697585478 0.9671002209665 -67.21147951733
176.0000000000000 0.9622128939094 -72.09645015468 0.2509205978542 18.450847209492 0.2509205978542 18.450847209493 0.9619151046434 -69.60330400202
177.0000000000000 0.9560556801817 -74.56039667801 0.2718947147353 15.909098095370 0.2718947147353 15.909098095371 0.9557108164122 -72.17442627313
178.0000000000000 0.9486593117736 -77.20236997047 0.2950840380678 13.176556824379 0.2950840380678 13.176556824378 0.9482597622645 -74.94515410229
179.0000000000000 0.9397445778356 -80.04116629229 0.3207237019829 10.232147733716 0.3207237019829 10.232147733716 0.9392813460910 -77.93829402077
180.0000000000000 0.9289687559139 -83.09728640651 0.3490541617456 7.0525755667477 0.3490541617456 7.0525755667483 0.9284311971242 -81.17927550667
181.0000000000000 0.9159144363617 -86.39266590123 0.3803083016958 3.6124482855827 0.3803083016958 3.6124482855823 0.9152899520862 -84.69614558756
182.0000000000000 0.9000794582258 -89.95009139221 0.4146909946442 -0.115338933790 0.4146909946442 -0.115338933789 0.8993531478729 -88.51934362947
183.0000000000000 0.8808708676975 -93.79213875599 0.4523486067945 -4.158816354480 0.4523486067945 -4.158816354481 0.8800251426414 -92.68113421180
184.0000000000000 0.8576077250850 -97.93941983980 0.4933261976893 -8.545572720088 0.4933261976893 -8.545572720087 0.8566218903393 -97.21454843126
185.0000000000000 0.8295400215717 -102.4078863110 0.5375115922537 -13.30060954745 0.5375115922536 -13.30060954745 0.8283898369233 -102.1516813839
186.0000000000000 0.7958931640170 -107.2049401936 0.5845690669258 -18.44325684084 0.5845690669258 -18.44325684084 0.7945503875694 -107.5212573598
187.0000000000000 0.7559479589407 -112.3241803502 0.6338718163839 -23.98312525688 0.6338718163839 -23.98312525688 0.7543798462132 -113.3455585008
188.0000000000000 0.7091618541411 -117.7388129074 0.6844516459782 -29.91537432687 0.6844516459782 -29.91537432687 0.7073305157988 -119.6372048628
189.0000000000000 0.6553254751287 -123.3940222353 0.7349933751510 -36.21603965881 0.7349933751510 -36.21603965881 0.6531868398445 -126.3969033194
190.0000000000000 0.5947282991714 -129.1987547944 0.7839038758242 -42.83870254033 0.7839038758242 -42.83870254033 0.5922301555046 -133.6141512998
191.0000000000000 0.5282853618469 -135.0168711564 0.8294722953289 -49.71408037139 0.8294722953289 -49.71408037139 0.5253634852614 -141.2738685658
192.0000000000000 0.4575682146166 -140.6555735350 0.8701055211437 -56.75380778112 0.8701055211438 -56.75380778112 0.4541388004001 -149.3731774896
193.0000000000000 0.3847061831671 -145.8437680728 0.9045818409591 -63.85851830583 0.9045818409591 -63.85851830583 0.3806512920007 -157.9551755921
194.0000000000000 0.3121816321498 -150.1810158936 0.9322424949417 -70.92872220639 0.9322424949416 -70.92872220638 0.3073210474407 -167.1750559299
195.0000000000000 0.2426205908793 -153.0078621483 0.9530572398883 -77.87573463408 0.9530572398883 -77.87573463406 0.2366555570877 -177.4430437635
196.0000000000000 0.1787748224955 -153.0650010375 0.9675516665986 -84.62989480608 0.9675516665983 -84.62989480609 0.1711718519763 170.20796019023
197.0000000000000 0.1241160972685 -147.5992553152 0.9766380232135 -91.14449829102 0.9766380232134 -91.14449829102 0.1138980101685 152.99395249474
198.0000000000000 0.0850578467850 -130.9082052675 0.9814162595498 -97.39550470334 0.9814162595498 -97.39550470335 0.0710411722098 123.07398740362
199.0000000000000 0.0728109344179 -101.2065744267 0.9830016664225 -103.3782528027 0.9830016664225 -103.3782528027 0.0579707706673 73.150934469784
200.0000000000000 0.0871037095317 -77.47483849989 0.9824071753719 -109.1027673355 0.9824071753719 -109.1027673355 0.0767282900685 33.759726101923
201.0000000000000 0.1112731040210 -67.10480292150 0.9804820535664 -114.5889590072 0.9804820535664 -114.5889590072 0.1044527775675 13.188266902791
202.0000000000000 0.1354402012437 -63.94667165352 0.9778941363175 -119.8624817860 0.9778941363175 -119.8624817860 0.1307090773210 0.6484677815966
203.0000000000000 0.1564920077065 -64.14033514923 0.9751391926954 -124.9515420058 0.9751391926953 -124.9515420058 0.1530498881755 -8.437624805207
204.0000000000000 0.1736193034523 -66.02057649561 0.9725636872890 -129.8846462917 0.9725636872890 -129.8846462917 0.1710340167635 -15.76110736447
205.0000000000000 0.1867638117219 -68.83703341605 0.9703917170364 -134.6891312898 0.9703917170364 -134.6891312898 0.1847832528233 -22.05283574872
206.0000000000000 0.1961353075292 -72.22179191930 0.9687509956307 -139.3902826743 0.9687509956307 -139.3902826743 0.1946007458997 -27.67869371852
207.0000000000000 0.2020425795377 -75.98114059472 0.9676956019204 -144.0108668126 0.9676956019204 -144.0108668126 0.2008471652083 -32.84423776574
208.0000000000000 0.2048283113093 -80.00733882484 0.9672248953277 -148.5709390713 0.9672248953277 -148.5709390713 0.2038956477810 -37.67578626166
209.0000000000000 0.2048434581270 -84.23766260505 0.9672988547493 -153.0878311838 0.9672988547493 -153.0878311838 0.2041156552705 -42.25677064330
210.0000000000000 0.2024381225074 -88.63370920935 0.9678504250031 -157.5762530329 0.9678504250031 -157.5762530329 0.2018686352567 -46.64591895292
211.0000000000000 0.1979595535481 -93.17001789601 0.9687954934293 -162.0484696292 0.9687954934293 -162.0484696292 0.1975085682693 -50.88742271057
212.0000000000000 0.1917529976563 -97.82715842187 0.9700410302606 -166.5145296269 0.9700410302606 -166.5145296269 0.1913842426272 -55.01742087995
213.0000000000000 0.1841633156495 -102.5869289847 0.9714917637917 -170.9825341597 0.9714917637917 -170.9825341597 0.1838416894640 -59.06887256178
214.0000000000000 0.1755362990373 -107.4284028702 0.9730556181671 -175.4589375987 0.9730556181671 -175.4589375987 0.1752260119998 -63.07592229748
215.0000000000000 0.1662192727055 -112.3240734869 0.9746479937780 -179.9488768008 0.9746479937780 -179.9488768008 0.1658823557600 -67.07841436072
216.0000000000000 0.1565609522589 -117.2356887433 0.9761948769593 175.54347695784 0.9761948769593 175.54347695784 0.1561561466751 -71.12691749582
217.0000000000000 0.1469109332753 -122.1097059836 0.9776346964594 171.01455092197 0.9776346964594 171.01455092197 0.1463931181147 -75.28826411519
218.0000000000000 0.1376196327725 -126.8728851293 0.9789188203481 166.46099705189 0.9789188203481 166.46099705189 0.1369401487743 -79.65101535722
219.0000000000000 0.1290399195550 -131.4295536324 0.9800105958399 161.87932454740 0.9800105958399 161.87932454740 0.1281483548335 -84.32913206967
220.0000000000000 0.1215318855553 -135.6636487303 0.9808828711114 157.26555220970 0.9808828711114 157.26555220970 0.1203801312139 -89.46034950512
221.0000000000000 0.1154717577029 -139.4503831446 0.9815139795680 152.61489645793 0.9815139795680 152.61489645793 0.1140211091976 -95.19356209388
222.0000000000000 0.1112638354181 -142.6827270103 0.9818822251333 147.92151216804 0.9818822251333 147.92151216804 0.1094953016881 -101.6586588745
223.0000000000000 0.1093502397457 -145.3134181114 0.9819589584661 143.17830413078 0.9819589584661 143.17830413078 0.1072763622198 -108.9170110439
224.0000000000000 0.1102087995598 -147.4006371478 0.9817003931904 138.37682955079 0.9817003931904 138.37682955079 0.1078822490691 -116.9063016213
225.0000000000000 0.1143301779994 -149.1294225699 0.9810383734755 133.50731381924 0.9810383734755 133.50731381925 0.1118423477057 -125.4151010482
226.0000000000000 0.1221763965242 -150.7807935773 0.9798704479555 128.55880584670 0.9798704479556 128.55880584670 0.1196423887555 -134.1240864424
227.0000000000000 0.1341380393375 -152.6528236390 0.9780497795625 123.51950405857 0.9780497795625 123.51950405857 0.1316731540373 -142.7070648840
228.0000000000000 0.1505091298719 -154.9783741901 0.9753757444115 118.37728647899 0.9753757444114 118.37728647899 0.1482082200670 -150.9303504240
229.0000000000000 0.1714822233236 -157.8848241937 0.9715865504660 113.12047986629 0.9715865504661 113.12047986628 0.1694099660864 -158.6927373807
230.0000000000000 0.1971499863565 -161.4023795268 0.9663557593860 107.73889352717 0.9663557593858 107.73889352715 0.1953417581528 -166.0039791408
231.0000000000000 0.2274987442703 -165.4967390575 0.9592952698804 102.22512134144 0.9592952698804 102.22512134143 0.2259670466973 -172.9373831326
232.0000000000000 0.2623892072378 -170.1014277950 0.9499677059706 96.576072926822 0.9499677059707 96.576072926826 0.2611310201244 -179.5872333081
233.0000000000000 0.3015287833955 -175.1390671303 0.9379110372355 90.794626682907 0.9379110372355 90.794626682907 0.3005315496248 173.95823136639
234.0000000000000 0.3444446897061 179.46837417100 0.9226769827259 84.891210131455 0.9226769827259 84.891210131455 0.3436904344313 167.63010295849
235.0000000000000 0.3904687176471 173.79645238228 0.9038820158379 78.885024014113 0.9038820158379 78.885024014113 0.3899365994605 161.38336259497
